T3174 1426:857 SEGGER J-Link V6.30h Log File (0000ms, 9061ms total)
T3174 1426:857 DLL Compiled: Mar 16 2018 18:02:51 (0000ms, 9061ms total)
T3174 1426:857 Logging started @ 2019-08-24 14:24 (0000ms, 9061ms total)
T3174 1426:857 JLINK_SetWarnOutHandler(...) (0000ms, 9061ms total)
T3174 1426:857 JLINK_OpenEx(...)
Firmware: J-Link OB-STM32F072-CortexM compiled Jan  7 2019 14:09:37
Hardware: V1.00
Feature(s): GDB, RDI, FlashBP, FlashDL, JFlash, RDDI
TELNET listener socket opened on port 19021WEBSRV 
Starting webserver (0109ms, 9170ms total)
T3174 1426:857 WEBSRV Webserver running on local port 19080 (0110ms, 9171ms total)
T3174 1426:857   returns O.K. (0110ms, 9171ms total)
T3174 1426:967 JLINK_GetEmuCaps()  returns 0xB8EA5A33 (0000ms, 9171ms total)
T3174 1426:967 JLINK_TIF_GetAvailable(...) (0000ms, 9171ms total)
T3174 1426:967 JLINK_SetErrorOutHandler(...) (0000ms, 9171ms total)
T3174 1426:967 JLINK_ExecCommand("ProjectFile = "F:\L2\nRF52832\project\examples\ble_peripheral\test\pca10040\s132\arm5_no_packs\JLinkSettings.ini"", ...).   returns 0x00 (0002ms, 9173ms total)
T3174 1426:974 JLINK_ExecCommand("Device = nRF52832_xxAA", ...). Device "NRF52832_XXAA" selected.  returns 0x00 (0004ms, 9177ms total)
T3174 1426:978 JLINK_ExecCommand("DisableConnectionTimeout", ...).   returns 0x01 (0000ms, 9178ms total)
T3174 1426:979 JLINK_GetHardwareVersion()  returns 0x2710 (0000ms, 9178ms total)
T3174 1426:979 JLINK_GetDLLVersion()  returns 63008 (0000ms, 9178ms total)
T3174 1426:979 JLINK_GetFirmwareString(...) (0000ms, 9178ms total)
T3174 1426:990 JLINK_GetDLLVersion()  returns 63008 (0000ms, 9178ms total)
T3174 1426:990 JLINK_GetCompileDateTime() (0000ms, 9178ms total)
T3174 1426:994 JLINK_GetFirmwareString(...) (0000ms, 9178ms total)
T3174 1427:000 JLINK_GetHardwareVersion()  returns 0x2710 (0000ms, 9178ms total)
T3174 1427:007 JLINK_TIF_Select(JLINKARM_TIF_SWD)  returns 0x00 (0001ms, 9179ms total)
T3174 1427:008 JLINK_SetSpeed(5000) (0000ms, 9179ms total)
T3174 1427:008 JLINK_GetId() >0x10B TIF>Found SW-DP with ID 0x2BA01477 >0x0D TIF> >0x28 TIF> >0x0D TIF> >0x28 TIF> >0x10B TIF>Found SW-DP with ID 0x2BA01477 >0x0D TIF> >0x28 TIF> >0x0D TIF> >0x28 TIF> >0x0D TIF> >0x28 TIF> >0x0D TIF> >0x28 TIF> >0x35 TIF> >0x0D TIF> >0x28 TIF>Scanning AP map to find all available APs >0x0D TIF> >0x28 TIF> >0x35 TIF> >0x35 TIF> >0x0D TIF> >0x28 TIF> >0x35 TIF> >0x35 TIF> >0x0D TIF> >0x28 TIF> >0x35 TIF> >0x35 TIF>AP[2]: Stopped AP scan as end of AP map has been reached
AP[0]: AHB-AP (IDR: 0x24770011)AP[1]: JTAG-AP (IDR: 0x02880000)Iterating through AP map to find AHB-AP to use >0x42 TIF> >0x28 TIF> >0x0D TIF> >0x28 TIF> >0x35 TIF> >0x35 TIF> >0x42 TIF> >0x28 TIF> >0x0D TIF> >0x28 TIF> >0x0D TIF> >0x28 TIF> >0x35 TIF> >0x35 TIF>AP[0]: Core foundAP[0]: AHB-AP ROM base: 0xE00FF000 >0x0D TIF> >0x28 TIF> >0x0D TIF> >0x28 TIF> >0x0D TIF> >0x28 TIF> >0x35 TIF> >0x35 TIF>CPUID register: 0x410FC241. Implementer code: 0x41 (ARM)Found Cortex-M4 r0p1, Little endian.
 -- CPU_ReadMem(4 bytes @ 0xE000EDF0) -- CPU_WriteMem(4 bytes @ 0xE000EDF0) -- CPU_ReadMem(4 bytes @ 0xE0002000)FPUnit: 6 code (BP) slots and 2 literal slots -- CPU_ReadMem(4 bytes @ 0xE000EDFC) -- CPU_WriteMem(4 bytes @ 0xE000EDFC) -- CPU_ReadMem(4 bytes @ 0xE0001000) -- CPU_WriteMem(4 bytes @ 0xE0001000) -- CPU_ReadMem(4 bytes @ 0xE000ED88) -- CPU_WriteMem(4 bytes @ 0xE000ED88) -- CPU_ReadMem(4 bytes @ 0xE000ED88) -- CPU_WriteMem(4 bytes @ 0xE000ED88)CoreSight components:ROMTbl[0] @ E00FF000
 -- CPU_ReadMem(16 bytes @ 0xE00FF000) -- CPU_ReadMem(16 bytes @ 0xE000EFF0) -- CPU_ReadMem(16 bytes @ 0xE000EFE0)ROMTbl[0][0]: E000E000, CID: B105E00D, PID: 000BB00C SCS-M7 -- CPU_ReadMem(16 bytes @ 0xE0001FF0) -- CPU_ReadMem(16 bytes @ 0xE0001FE0)ROMTbl[0][1]: E0001000, CID: B105E00D, PID: 003BB002 DWT -- CPU_ReadMem(16 bytes @ 0xE0002FF0) -- CPU_ReadMem(16 bytes @ 0xE0002FE0)ROMTbl[0][2]: E0002000, CID: B105E00D, PID: 002BB003 FPB -- CPU_ReadMem(16 bytes @ 0xE0000FF0)
 -- CPU_ReadMem(16 bytes @ 0xE0000FE0)ROMTbl[0][3]: E0000000, CID: B105E00D, PID: 003BB001 ITM -- CPU_ReadMem(16 bytes @ 0xE00FF010) -- CPU_ReadMem(16 bytes @ 0xE0040FF0) -- CPU_ReadMem(16 bytes @ 0xE0040FE0)ROMTbl[0][4]: E0040000, CID: B105900D, PID: 000BB9A1 TPIU -- CPU_ReadMem(16 bytes @ 0xE0041FF0) -- CPU_ReadMem(16 bytes @ 0xE0041FE0)ROMTbl[0][5]: E0041000, CID: B105900D, PID: 000BB925 ETM >0x35 TIF>  returns 0x2BA01477 (0187ms, 9366ms total)
T3174 1427:195 JLINK_GetDLLVersion()  returns 63008 (0000ms, 9366ms total)
T3174 1427:195 JLINK_CORE_GetFound()  returns 0xE0000FF (0000ms, 9366ms total)
T3174 1427:195 JLINK_GetDebugInfo(0x100 = JLINKARM_ROM_TABLE_ADDR_INDEX) -- Value=0xE00FF000  returns 0x00 (0000ms, 9366ms total)
T3174 1427:199 JLINK_GetDebugInfo(0x100 = JLINKARM_ROM_TABLE_ADDR_INDEX) -- Value=0xE00FF000  returns 0x00 (0000ms, 9366ms total)
T3174 1427:199 JLINK_GetDebugInfo(0x101 = JLINKARM_DEBUG_INFO_ETM_ADDR_INDEX) -- Value=0xE0041000  returns 0x00 (0000ms, 9366ms total)
T3174 1427:199 JLINK_ReadMemEx(0xE0041FD0, 0x0020 Bytes, ..., Flags = 0x02000004) -- CPU_ReadMem(32 bytes @ 0xE0041FD0) - Data: 04 00 00 00 00 00 00 00 00 00 00 00 00 00 00 00 ...  returns 0x20 (0001ms, 9367ms total)
T3174 1427:200 JLINK_GetDebugInfo(0x102 = JLINKARM_DEBUG_INFO_MTB_ADDR_INDEX) -- Value=0x00000000  returns 0x00 (0000ms, 9367ms total)
T3174 1427:200 JLINK_GetDebugInfo(0x103 = JLINKARM_DEBUG_INFO_TPIU_ADDR_INDEX) -- Value=0xE0040000  returns 0x00 (0000ms, 9367ms total)
T3174 1427:200 JLINK_GetDebugInfo(0x104 = JLINKARM_DEBUG_INFO_ITM_ADDR_INDEX) -- Value=0xE0000000  returns 0x00 (0000ms, 9367ms total)
T3174 1427:200 JLINK_GetDebugInfo(0x105 = JLINKARM_DEBUG_INFO_DWT_ADDR_INDEX) -- Value=0xE0001000  returns 0x00 (0000ms, 9367ms total)
T3174 1427:200 JLINK_GetDebugInfo(0x106 = JLINKARM_DEBUG_INFO_FPB_ADDR_INDEX) -- Value=0xE0002000  returns 0x00 (0000ms, 9367ms total)
T3174 1427:200 JLINK_GetDebugInfo(0x107 = JLINKARM_DEBUG_INFO_NVIC_ADDR_INDEX) -- Value=0xE000E000  returns 0x00 (0000ms, 9367ms total)
T3174 1427:200 JLINK_GetDebugInfo(0x10C = JLINKARM_DEBUG_INFO_DBG_ADDR_INDEX) -- Value=0xE000EDF0  returns 0x00 (0000ms, 9367ms total)
T3174 1427:200 JLINK_GetDebugInfo(0x01 = Unknown) -- Value=0x00000001  returns 0x00 (0000ms, 9367ms total)
T3174 1427:200 JLINK_ReadMemU32(0xE000ED00, 0x0001 Items, ...) -- CPU_ReadMem(4 bytes @ 0xE000ED00) - Data: 41 C2 0F 41  returns 0x01 (0000ms, 9367ms total)
T3174 1427:200 JLINK_GetDebugInfo(0x10F = JLINKARM_DEBUG_INFO_HAS_CORTEX_M_SECURITY_EXT_INDEX) -- Value=0x00000000  returns 0x00 (0000ms, 9367ms total)
T3174 1427:200 JLINK_SetResetType(JLINKARM_CM3_RESET_TYPE_NORMAL)  returns JLINKARM_CM3_RESET_TYPE_NORMAL (0000ms, 9367ms total)
T3174 1427:200 JLINK_Reset() -- CPU is running -- CPU_WriteMem(4 bytes @ 0xE000EDF0) -- CPU is running -- CPU_WriteMem(4 bytes @ 0xE000EDFC)Reset: Halt core after reset via DEMCR.VC_CORERESET. >0x35 TIF>Reset: Reset device via AIRCR.SYSRESETREQ. -- CPU is running -- CPU_WriteMem(4 bytes @ 0xE000ED0C) >0x0D TIF> >0x28 TIF> -- CPU_ReadMem(4 bytes @ 0xE000EDF0) -- CPU_ReadMem(4 bytes @ 0xE000EDF0) -- CPU is running -- CPU_WriteMem(4 bytes @ 0xE000EDF0) -- CPU is running -- CPU_WriteMem(4 bytes @ 0xE000EDFC)
 -- CPU_ReadMem(4 bytes @ 0xE000EDF0) -- CPU_WriteMem(4 bytes @ 0xE0002000) -- CPU_ReadMem(4 bytes @ 0xE000EDFC) -- CPU_ReadMem(4 bytes @ 0xE0001000) (0074ms, 9441ms total)
T3174 1427:274 JLINK_Halt()  returns 0x00 (0000ms, 9441ms total)
T3174 1427:274 JLINK_ReadMemU32(0xE000EDF0, 0x0001 Items, ...) -- CPU_ReadMem(4 bytes @ 0xE000EDF0) - Data: 03 00 03 00  returns 0x01 (0001ms, 9442ms total)
T3174 1427:275 JLINK_WriteU32(0xE000EDF0, 0xA05F0003) -- CPU_WriteMem(4 bytes @ 0xE000EDF0)  returns 0x00 (0000ms, 9442ms total)
T3174 1427:275 JLINK_WriteU32(0xE000EDFC, 0x01000000) -- CPU_WriteMem(4 bytes @ 0xE000EDFC)  returns 0x00 (0001ms, 9443ms total)
T3174 1427:286 JLINK_GetHWStatus(...)  returns 0x00 (0001ms, 9444ms total)
T3174 1427:298 JLINK_GetNumBPUnits(Type = 0xFFFFFF00)  returns 0x06 (0000ms, 9444ms total)
T3174 1427:298 JLINK_GetNumBPUnits(Type = 0xF0)  returns 0x2000 (0000ms, 9444ms total)
T3174 1427:298 JLINK_GetNumWPUnits()  returns 0x04 (0000ms, 9444ms total)
T3174 1427:306 JLINK_GetSpeed()  returns 0x7D0 (0000ms, 9444ms total)
T3174 1427:310 JLINK_ReadMemU32(0xE000E004, 0x0001 Items, ...) -- CPU_ReadMem(4 bytes @ 0xE000E004) - Data: 01 00 00 00  returns 0x01 (0001ms, 9445ms total)
T3174 1427:311 JLINK_ReadMemU32(0xE000E004, 0x0001 Items, ...) -- CPU_ReadMem(4 bytes @ 0xE000E004) - Data: 01 00 00 00  returns 0x01 (0000ms, 9445ms total)
T3174 1427:311 JLINK_WriteMemEx(0xE0001000, 0x001C Bytes, ..., Flags = 0x02000004) - Data: 01 00 00 00 00 00 00 00 00 00 00 00 00 00 00 00 ... -- CPU_WriteMem(28 bytes @ 0xE0001000)  returns 0x1C (0001ms, 9446ms total)
T3174 1427:312 JLINK_Halt()  returns 0x00 (0000ms, 9446ms total)
T3174 1427:312 JLINK_IsHalted()  returns TRUE (0000ms, 9446ms total)
T3174 1427:317 JLINK_WriteMem(0x20000000, 0x06E4 Bytes, ...) - Data: 00 BE 0A E0 0D 78 2D 06 68 40 08 24 40 00 00 D3 ... -- CPU_WriteMem(1764 bytes @ 0x20000000)  returns 0x6E4 (0017ms, 9463ms total)
T3174 1427:334 JLINK_WriteReg(R0, 0x00000000)  returns 0x00 (0000ms, 9463ms total)
T3174 1427:334 JLINK_WriteReg(R1, 0x00B71B00)  returns 0x00 (0000ms, 9463ms total)
T3174 1427:334 JLINK_WriteReg(R2, 0x00000001)  returns 0x00 (0000ms, 9463ms total)
T3174 1427:334 JLINK_WriteReg(R3, 0x00000000)  returns 0x00 (0000ms, 9463ms total)
T3174 1427:334 JLINK_WriteReg(R4, 0x00000000)  returns 0x00 (0000ms, 9463ms total)
T3174 1427:334 JLINK_WriteReg(R5, 0x00000000)  returns 0x00 (0000ms, 9463ms total)
T3174 1427:334 JLINK_WriteReg(R6, 0x00000000)  returns 0x00 (0000ms, 9463ms total)
T3174 1427:334 JLINK_WriteReg(R7, 0x00000000)  returns 0x00 (0000ms, 9463ms total)
T3174 1427:334 JLINK_WriteReg(R8, 0x00000000)  returns 0x00 (0000ms, 9463ms total)
T3174 1427:334 JLINK_WriteReg(R9, 0x200006E0)  returns 0x00 (0000ms, 9463ms total)
T3174 1427:334 JLINK_WriteReg(R10, 0x00000000)  returns 0x00 (0000ms, 9463ms total)
T3174 1427:334 JLINK_WriteReg(R11, 0x00000000)  returns 0x00 (0000ms, 9463ms total)
T3174 1427:334 JLINK_WriteReg(R12, 0x00000000)  returns 0x00 (0000ms, 9463ms total)
T3174 1427:334 JLINK_WriteReg(R13 (SP), 0x20004000)  returns 0x00 (0000ms, 9463ms total)
T3174 1427:334 JLINK_WriteReg(R14, 0x20000001)  returns 0x00 (0000ms, 9463ms total)
T3174 1427:334 JLINK_WriteReg(R15 (PC), 0x20000020)  returns 0x00 (0000ms, 9463ms total)
T3174 1427:334 JLINK_WriteReg(XPSR, 0x01000000)  returns 0x00 (0000ms, 9463ms total)
T3174 1427:334 JLINK_WriteReg(MSP, 0x20004000)  returns 0x00 (0001ms, 9464ms total)
T3174 1427:335 JLINK_WriteReg(PSP, 0x20004000)  returns 0x00 (0000ms, 9464ms total)
T3174 1427:335 JLINK_WriteReg(CFBP, 0x00000000)  returns 0x00 (0000ms, 9464ms total)
T3174 1427:335 JLINK_SetBPEx(Addr = 0x20000000, Type = 0xFFFFFFF2) -- CPU_ReadMem(2 bytes @ 0x20000000)  returns 0x00000001 (0000ms, 9464ms total)
T3174 1427:335 JLINK_Go() -- CPU_WriteMem(2 bytes @ 0x20000000) -- CPU_ReadMem(4 bytes @ 0xE0001000) -- CPU_WriteMem(4 bytes @ 0xE0002008) -- CPU_WriteMem(4 bytes @ 0xE000200C) -- CPU_WriteMem(4 bytes @ 0xE0002010) -- CPU_WriteMem(4 bytes @ 0xE0002014) -- CPU_WriteMem(4 bytes @ 0xE0002018) -- CPU_WriteMem(4 bytes @ 0xE000201C) -- CPU_WriteMem(4 bytes @ 0xE0001004) (0006ms, 9470ms total)
T3174 1427:341 JLINK_IsHalted() -- CPU_ReadMem(2 bytes @ 0x20000000)  returns TRUE (0005ms, 9475ms total)
T3174 1427:346 JLINK_ReadReg(R15 (PC))  returns 0x20000000 (0000ms, 9470ms total)
T3174 1427:346 JLINK_ClrBPEx(BPHandle = 0x00000001)  returns 0x00 (0000ms, 9470ms total)
T3174 1427:346 JLINK_ReadReg(R0)  returns 0x00000000 (0000ms, 9470ms total)
T3174 1427:347 JLINK_WriteReg(R0, 0x00026000)  returns 0x00 (0000ms, 9470ms total)
T3174 1427:347 JLINK_WriteReg(R1, 0x00001000)  returns 0x00 (0000ms, 9470ms total)
T3174 1427:347 JLINK_WriteReg(R2, 0x000000FF)  returns 0x00 (0000ms, 9470ms total)
T3174 1427:347 JLINK_WriteReg(R3, 0x00000000)  returns 0x00 (0000ms, 9470ms total)
T3174 1427:347 JLINK_WriteReg(R4, 0x00000000)  returns 0x00 (0000ms, 9470ms total)
T3174 1427:347 JLINK_WriteReg(R5, 0x00000000)  returns 0x00 (0000ms, 9470ms total)
T3174 1427:347 JLINK_WriteReg(R6, 0x00000000)  returns 0x00 (0000ms, 9470ms total)
T3174 1427:347 JLINK_WriteReg(R7, 0x00000000)  returns 0x00 (0000ms, 9470ms total)
T3174 1427:347 JLINK_WriteReg(R8, 0x00000000)  returns 0x00 (0000ms, 9470ms total)
T3174 1427:347 JLINK_WriteReg(R9, 0x200006E0)  returns 0x00 (0000ms, 9470ms total)
T3174 1427:347 JLINK_WriteReg(R10, 0x00000000)  returns 0x00 (0000ms, 9470ms total)
T3174 1427:347 JLINK_WriteReg(R11, 0x00000000)  returns 0x00 (0000ms, 9470ms total)
T3174 1427:347 JLINK_WriteReg(R12, 0x00000000)  returns 0x00 (0000ms, 9470ms total)
T3174 1427:347 JLINK_WriteReg(R13 (SP), 0x20004000)  returns 0x00 (0000ms, 9470ms total)
T3174 1427:347 JLINK_WriteReg(R14, 0x20000001)  returns 0x00 (0000ms, 9470ms total)
T3174 1427:347 JLINK_WriteReg(R15 (PC), 0x20000344)  returns 0x00 (0000ms, 9470ms total)
T3174 1427:347 JLINK_WriteReg(XPSR, 0x01000000)  returns 0x00 (0000ms, 9470ms total)
T3174 1427:347 JLINK_WriteReg(MSP, 0x20004000)  returns 0x00 (0000ms, 9470ms total)
T3174 1427:347 JLINK_WriteReg(PSP, 0x20004000)  returns 0x00 (0000ms, 9470ms total)
T3174 1427:347 JLINK_WriteReg(CFBP, 0x00000000)  returns 0x00 (0000ms, 9470ms total)
T3174 1427:347 JLINK_SetBPEx(Addr = 0x20000000, Type = 0xFFFFFFF2)  returns 0x00000002 (0000ms, 9470ms total)
T3174 1427:347 JLINK_Go() -- CPU_ReadMem(4 bytes @ 0xE0001000) (0003ms, 9473ms total)
T3174 1427:350 JLINK_IsHalted()  returns FALSE (0000ms, 9473ms total)
T3174 1427:410 JLINK_IsHalted() -- CPU_ReadMem(2 bytes @ 0x20000000)  returns TRUE (0004ms, 9477ms total)
T3174 1427:414 JLINK_ReadReg(R15 (PC))  returns 0x20000000 (0000ms, 9473ms total)
T3174 1427:414 JLINK_ClrBPEx(BPHandle = 0x00000002)  returns 0x00 (0001ms, 9474ms total)
T3174 1427:415 JLINK_ReadReg(R0)  returns 0x00000000 (0000ms, 9474ms total)
T3174 1427:415 JLINK_WriteReg(R0, 0x00027000)  returns 0x00 (0000ms, 9474ms total)
T3174 1427:415 JLINK_WriteReg(R1, 0x00001000)  returns 0x00 (0000ms, 9474ms total)
T3174 1427:415 JLINK_WriteReg(R2, 0x000000FF)  returns 0x00 (0000ms, 9474ms total)
T3174 1427:415 JLINK_WriteReg(R3, 0x00000000)  returns 0x00 (0000ms, 9474ms total)
T3174 1427:415 JLINK_WriteReg(R4, 0x00000000)  returns 0x00 (0000ms, 9474ms total)
T3174 1427:415 JLINK_WriteReg(R5, 0x00000000)  returns 0x00 (0000ms, 9474ms total)
T3174 1427:415 JLINK_WriteReg(R6, 0x00000000)  returns 0x00 (0000ms, 9474ms total)
T3174 1427:415 JLINK_WriteReg(R7, 0x00000000)  returns 0x00 (0000ms, 9474ms total)
T3174 1427:415 JLINK_WriteReg(R8, 0x00000000)  returns 0x00 (0000ms, 9474ms total)
T3174 1427:415 JLINK_WriteReg(R9, 0x200006E0)  returns 0x00 (0000ms, 9474ms total)
T3174 1427:415 JLINK_WriteReg(R10, 0x00000000)  returns 0x00 (0000ms, 9474ms total)
T3174 1427:415 JLINK_WriteReg(R11, 0x00000000)  returns 0x00 (0000ms, 9474ms total)
T3174 1427:415 JLINK_WriteReg(R12, 0x00000000)  returns 0x00 (0000ms, 9474ms total)
T3174 1427:415 JLINK_WriteReg(R13 (SP), 0x20004000)  returns 0x00 (0000ms, 9474ms total)
T3174 1427:415 JLINK_WriteReg(R14, 0x20000001)  returns 0x00 (0000ms, 9474ms total)
T3174 1427:415 JLINK_WriteReg(R15 (PC), 0x20000344)  returns 0x00 (0000ms, 9474ms total)
T3174 1427:415 JLINK_WriteReg(XPSR, 0x01000000)  returns 0x00 (0000ms, 9474ms total)
T3174 1427:415 JLINK_WriteReg(MSP, 0x20004000)  returns 0x00 (0000ms, 9474ms total)
T3174 1427:415 JLINK_WriteReg(PSP, 0x20004000)  returns 0x00 (0000ms, 9474ms total)
T3174 1427:415 JLINK_WriteReg(CFBP, 0x00000000)  returns 0x00 (0000ms, 9474ms total)
T3174 1427:415 JLINK_SetBPEx(Addr = 0x20000000, Type = 0xFFFFFFF2)  returns 0x00000003 (0000ms, 9474ms total)
T3174 1427:415 JLINK_Go() -- CPU_ReadMem(4 bytes @ 0xE0001000) (0002ms, 9476ms total)
T3174 1427:417 JLINK_IsHalted()  returns FALSE (0001ms, 9477ms total)
T3174 1427:421 JLINK_IsHalted() -- CPU_ReadMem(2 bytes @ 0x20000000)  returns TRUE (0004ms, 9480ms total)
T3174 1427:425 JLINK_ReadReg(R15 (PC))  returns 0x20000000 (0000ms, 9476ms total)
T3174 1427:425 JLINK_ClrBPEx(BPHandle = 0x00000003)  returns 0x00 (0000ms, 9476ms total)
T3174 1427:425 JLINK_ReadReg(R0)  returns 0x00000000 (0001ms, 9477ms total)
T3174 1427:426 JLINK_WriteReg(R0, 0x00028000)  returns 0x00 (0000ms, 9477ms total)
T3174 1427:426 JLINK_WriteReg(R1, 0x00001000)  returns 0x00 (0000ms, 9477ms total)
T3174 1427:426 JLINK_WriteReg(R2, 0x000000FF)  returns 0x00 (0000ms, 9477ms total)
T3174 1427:426 JLINK_WriteReg(R3, 0x00000000)  returns 0x00 (0000ms, 9477ms total)
T3174 1427:426 JLINK_WriteReg(R4, 0x00000000)  returns 0x00 (0000ms, 9477ms total)
T3174 1427:426 JLINK_WriteReg(R5, 0x00000000)  returns 0x00 (0000ms, 9477ms total)
T3174 1427:426 JLINK_WriteReg(R6, 0x00000000)  returns 0x00 (0000ms, 9477ms total)
T3174 1427:426 JLINK_WriteReg(R7, 0x00000000)  returns 0x00 (0000ms, 9477ms total)
T3174 1427:426 JLINK_WriteReg(R8, 0x00000000)  returns 0x00 (0000ms, 9477ms total)
T3174 1427:426 JLINK_WriteReg(R9, 0x200006E0)  returns 0x00 (0000ms, 9477ms total)
T3174 1427:426 JLINK_WriteReg(R10, 0x00000000)  returns 0x00 (0000ms, 9477ms total)
T3174 1427:426 JLINK_WriteReg(R11, 0x00000000)  returns 0x00 (0000ms, 9477ms total)
T3174 1427:426 JLINK_WriteReg(R12, 0x00000000)  returns 0x00 (0000ms, 9477ms total)
T3174 1427:426 JLINK_WriteReg(R13 (SP), 0x20004000)  returns 0x00 (0000ms, 9477ms total)
T3174 1427:426 JLINK_WriteReg(R14, 0x20000001)  returns 0x00 (0000ms, 9477ms total)
T3174 1427:426 JLINK_WriteReg(R15 (PC), 0x20000344)  returns 0x00 (0000ms, 9477ms total)
T3174 1427:426 JLINK_WriteReg(XPSR, 0x01000000)  returns 0x00 (0000ms, 9477ms total)
T3174 1427:426 JLINK_WriteReg(MSP, 0x20004000)  returns 0x00 (0000ms, 9477ms total)
T3174 1427:426 JLINK_WriteReg(PSP, 0x20004000)  returns 0x00 (0000ms, 9477ms total)
T3174 1427:426 JLINK_WriteReg(CFBP, 0x00000000)  returns 0x00 (0000ms, 9477ms total)
T3174 1427:426 JLINK_SetBPEx(Addr = 0x20000000, Type = 0xFFFFFFF2)  returns 0x00000004 (0000ms, 9477ms total)
T3174 1427:426 JLINK_Go() -- CPU_ReadMem(4 bytes @ 0xE0001000) (0003ms, 9480ms total)
T3174 1427:429 JLINK_IsHalted()  returns FALSE (0000ms, 9480ms total)
T3174 1427:433 JLINK_IsHalted() -- CPU_ReadMem(2 bytes @ 0x20000000)  returns TRUE (0004ms, 9484ms total)
T3174 1427:437 JLINK_ReadReg(R15 (PC))  returns 0x20000000 (0000ms, 9480ms total)
T3174 1427:437 JLINK_ClrBPEx(BPHandle = 0x00000004)  returns 0x00 (0000ms, 9480ms total)
T3174 1427:437 JLINK_ReadReg(R0)  returns 0x00000000 (0000ms, 9480ms total)
T3174 1427:438 JLINK_WriteReg(R0, 0x00029000)  returns 0x00 (0000ms, 9480ms total)
T3174 1427:438 JLINK_WriteReg(R1, 0x00001000)  returns 0x00 (0000ms, 9480ms total)
T3174 1427:438 JLINK_WriteReg(R2, 0x000000FF)  returns 0x00 (0000ms, 9480ms total)
T3174 1427:438 JLINK_WriteReg(R3, 0x00000000)  returns 0x00 (0000ms, 9480ms total)
T3174 1427:438 JLINK_WriteReg(R4, 0x00000000)  returns 0x00 (0000ms, 9480ms total)
T3174 1427:438 JLINK_WriteReg(R5, 0x00000000)  returns 0x00 (0000ms, 9480ms total)
T3174 1427:438 JLINK_WriteReg(R6, 0x00000000)  returns 0x00 (0000ms, 9480ms total)
T3174 1427:438 JLINK_WriteReg(R7, 0x00000000)  returns 0x00 (0000ms, 9480ms total)
T3174 1427:438 JLINK_WriteReg(R8, 0x00000000)  returns 0x00 (0000ms, 9480ms total)
T3174 1427:438 JLINK_WriteReg(R9, 0x200006E0)  returns 0x00 (0000ms, 9480ms total)
T3174 1427:438 JLINK_WriteReg(R10, 0x00000000)  returns 0x00 (0000ms, 9480ms total)
T3174 1427:438 JLINK_WriteReg(R11, 0x00000000)  returns 0x00 (0000ms, 9480ms total)
T3174 1427:438 JLINK_WriteReg(R12, 0x00000000)  returns 0x00 (0000ms, 9480ms total)
T3174 1427:438 JLINK_WriteReg(R13 (SP), 0x20004000)  returns 0x00 (0000ms, 9480ms total)
T3174 1427:438 JLINK_WriteReg(R14, 0x20000001)  returns 0x00 (0000ms, 9480ms total)
T3174 1427:438 JLINK_WriteReg(R15 (PC), 0x20000344)  returns 0x00 (0000ms, 9480ms total)
T3174 1427:438 JLINK_WriteReg(XPSR, 0x01000000)  returns 0x00 (0000ms, 9480ms total)
T3174 1427:438 JLINK_WriteReg(MSP, 0x20004000)  returns 0x00 (0000ms, 9480ms total)
T3174 1427:438 JLINK_WriteReg(PSP, 0x20004000)  returns 0x00 (0000ms, 9480ms total)
T3174 1427:438 JLINK_WriteReg(CFBP, 0x00000000)  returns 0x00 (0000ms, 9480ms total)
T3174 1427:438 JLINK_SetBPEx(Addr = 0x20000000, Type = 0xFFFFFFF2)  returns 0x00000005 (0000ms, 9480ms total)
T3174 1427:438 JLINK_Go() -- CPU_ReadMem(4 bytes @ 0xE0001000) (0002ms, 9482ms total)
T3174 1427:440 JLINK_IsHalted()  returns FALSE (0001ms, 9483ms total)
T3174 1427:443 JLINK_IsHalted() -- CPU_ReadMem(2 bytes @ 0x20000000)  returns TRUE (0004ms, 9486ms total)
T3174 1427:447 JLINK_ReadReg(R15 (PC))  returns 0x20000000 (0000ms, 9482ms total)
T3174 1427:447 JLINK_ClrBPEx(BPHandle = 0x00000005)  returns 0x00 (0000ms, 9482ms total)
T3174 1427:447 JLINK_ReadReg(R0)  returns 0x00000000 (0000ms, 9482ms total)
T3174 1427:448 JLINK_WriteReg(R0, 0x0002A000)  returns 0x00 (0000ms, 9482ms total)
T3174 1427:448 JLINK_WriteReg(R1, 0x00001000)  returns 0x00 (0000ms, 9482ms total)
T3174 1427:448 JLINK_WriteReg(R2, 0x000000FF)  returns 0x00 (0000ms, 9482ms total)
T3174 1427:448 JLINK_WriteReg(R3, 0x00000000)  returns 0x00 (0000ms, 9482ms total)
T3174 1427:448 JLINK_WriteReg(R4, 0x00000000)  returns 0x00 (0000ms, 9482ms total)
T3174 1427:448 JLINK_WriteReg(R5, 0x00000000)  returns 0x00 (0000ms, 9482ms total)
T3174 1427:448 JLINK_WriteReg(R6, 0x00000000)  returns 0x00 (0000ms, 9482ms total)
T3174 1427:448 JLINK_WriteReg(R7, 0x00000000)  returns 0x00 (0000ms, 9482ms total)
T3174 1427:448 JLINK_WriteReg(R8, 0x00000000)  returns 0x00 (0000ms, 9482ms total)
T3174 1427:448 JLINK_WriteReg(R9, 0x200006E0)  returns 0x00 (0000ms, 9482ms total)
T3174 1427:448 JLINK_WriteReg(R10, 0x00000000)  returns 0x00 (0000ms, 9482ms total)
T3174 1427:448 JLINK_WriteReg(R11, 0x00000000)  returns 0x00 (0000ms, 9482ms total)
T3174 1427:448 JLINK_WriteReg(R12, 0x00000000)  returns 0x00 (0000ms, 9482ms total)
T3174 1427:448 JLINK_WriteReg(R13 (SP), 0x20004000)  returns 0x00 (0000ms, 9482ms total)
T3174 1427:448 JLINK_WriteReg(R14, 0x20000001)  returns 0x00 (0000ms, 9482ms total)
T3174 1427:448 JLINK_WriteReg(R15 (PC), 0x20000344)  returns 0x00 (0000ms, 9482ms total)
T3174 1427:448 JLINK_WriteReg(XPSR, 0x01000000)  returns 0x00 (0000ms, 9482ms total)
T3174 1427:448 JLINK_WriteReg(MSP, 0x20004000)  returns 0x00 (0000ms, 9482ms total)
T3174 1427:448 JLINK_WriteReg(PSP, 0x20004000)  returns 0x00 (0000ms, 9482ms total)
T3174 1427:448 JLINK_WriteReg(CFBP, 0x00000000)  returns 0x00 (0000ms, 9482ms total)
T3174 1427:448 JLINK_SetBPEx(Addr = 0x20000000, Type = 0xFFFFFFF2)  returns 0x00000006 (0000ms, 9482ms total)
T3174 1427:448 JLINK_Go() -- CPU_ReadMem(4 bytes @ 0xE0001000) (0002ms, 9484ms total)
T3174 1427:450 JLINK_IsHalted()  returns FALSE (0001ms, 9485ms total)
T3174 1427:453 JLINK_IsHalted() -- CPU_ReadMem(2 bytes @ 0x20000000)  returns TRUE (0004ms, 9488ms total)
T3174 1427:457 JLINK_ReadReg(R15 (PC))  returns 0x20000000 (0000ms, 9484ms total)
T3174 1427:457 JLINK_ClrBPEx(BPHandle = 0x00000006)  returns 0x00 (0000ms, 9484ms total)
T3174 1427:457 JLINK_ReadReg(R0)  returns 0x00000000 (0000ms, 9484ms total)
T3174 1427:458 JLINK_WriteReg(R0, 0x0002B000)  returns 0x00 (0000ms, 9484ms total)
T3174 1427:458 JLINK_WriteReg(R1, 0x00001000)  returns 0x00 (0000ms, 9484ms total)
T3174 1427:458 JLINK_WriteReg(R2, 0x000000FF)  returns 0x00 (0000ms, 9484ms total)
T3174 1427:458 JLINK_WriteReg(R3, 0x00000000)  returns 0x00 (0000ms, 9484ms total)
T3174 1427:458 JLINK_WriteReg(R4, 0x00000000)  returns 0x00 (0000ms, 9484ms total)
T3174 1427:458 JLINK_WriteReg(R5, 0x00000000)  returns 0x00 (0000ms, 9484ms total)
T3174 1427:458 JLINK_WriteReg(R6, 0x00000000)  returns 0x00 (0000ms, 9484ms total)
T3174 1427:458 JLINK_WriteReg(R7, 0x00000000)  returns 0x00 (0000ms, 9484ms total)
T3174 1427:458 JLINK_WriteReg(R8, 0x00000000)  returns 0x00 (0000ms, 9484ms total)
T3174 1427:458 JLINK_WriteReg(R9, 0x200006E0)  returns 0x00 (0000ms, 9484ms total)
T3174 1427:458 JLINK_WriteReg(R10, 0x00000000)  returns 0x00 (0000ms, 9484ms total)
T3174 1427:458 JLINK_WriteReg(R11, 0x00000000)  returns 0x00 (0000ms, 9484ms total)
T3174 1427:458 JLINK_WriteReg(R12, 0x00000000)  returns 0x00 (0000ms, 9484ms total)
T3174 1427:458 JLINK_WriteReg(R13 (SP), 0x20004000)  returns 0x00 (0000ms, 9484ms total)
T3174 1427:458 JLINK_WriteReg(R14, 0x20000001)  returns 0x00 (0000ms, 9484ms total)
T3174 1427:458 JLINK_WriteReg(R15 (PC), 0x20000344)  returns 0x00 (0000ms, 9484ms total)
T3174 1427:458 JLINK_WriteReg(XPSR, 0x01000000)  returns 0x00 (0000ms, 9484ms total)
T3174 1427:458 JLINK_WriteReg(MSP, 0x20004000)  returns 0x00 (0000ms, 9484ms total)
T3174 1427:458 JLINK_WriteReg(PSP, 0x20004000)  returns 0x00 (0000ms, 9484ms total)
T3174 1427:458 JLINK_WriteReg(CFBP, 0x00000000)  returns 0x00 (0000ms, 9484ms total)
T3174 1427:458 JLINK_SetBPEx(Addr = 0x20000000, Type = 0xFFFFFFF2)  returns 0x00000007 (0000ms, 9484ms total)
T3174 1427:458 JLINK_Go() -- CPU_ReadMem(4 bytes @ 0xE0001000) (0002ms, 9486ms total)
T3174 1427:460 JLINK_IsHalted()  returns FALSE (0001ms, 9487ms total)
T3174 1427:464 JLINK_IsHalted() -- CPU_ReadMem(2 bytes @ 0x20000000)  returns TRUE (0004ms, 9490ms total)
T3174 1427:468 JLINK_ReadReg(R15 (PC))  returns 0x20000000 (0000ms, 9486ms total)
T3174 1427:469 JLINK_ClrBPEx(BPHandle = 0x00000007)  returns 0x00 (0000ms, 9486ms total)
T3174 1427:469 JLINK_ReadReg(R0)  returns 0x00000000 (0000ms, 9486ms total)
T3174 1427:469 JLINK_WriteReg(R0, 0x0002C000)  returns 0x00 (0000ms, 9486ms total)
T3174 1427:469 JLINK_WriteReg(R1, 0x00001000)  returns 0x00 (0000ms, 9486ms total)
T3174 1427:469 JLINK_WriteReg(R2, 0x000000FF)  returns 0x00 (0000ms, 9486ms total)
T3174 1427:469 JLINK_WriteReg(R3, 0x00000000)  returns 0x00 (0000ms, 9486ms total)
T3174 1427:469 JLINK_WriteReg(R4, 0x00000000)  returns 0x00 (0000ms, 9486ms total)
T3174 1427:469 JLINK_WriteReg(R5, 0x00000000)  returns 0x00 (0000ms, 9486ms total)
T3174 1427:469 JLINK_WriteReg(R6, 0x00000000)  returns 0x00 (0000ms, 9486ms total)
T3174 1427:469 JLINK_WriteReg(R7, 0x00000000)  returns 0x00 (0000ms, 9486ms total)
T3174 1427:469 JLINK_WriteReg(R8, 0x00000000)  returns 0x00 (0000ms, 9486ms total)
T3174 1427:469 JLINK_WriteReg(R9, 0x200006E0)  returns 0x00 (0000ms, 9486ms total)
T3174 1427:469 JLINK_WriteReg(R10, 0x00000000)  returns 0x00 (0000ms, 9486ms total)
T3174 1427:469 JLINK_WriteReg(R11, 0x00000000)  returns 0x00 (0000ms, 9486ms total)
T3174 1427:469 JLINK_WriteReg(R12, 0x00000000)  returns 0x00 (0000ms, 9486ms total)
T3174 1427:469 JLINK_WriteReg(R13 (SP), 0x20004000)  returns 0x00 (0000ms, 9486ms total)
T3174 1427:469 JLINK_WriteReg(R14, 0x20000001)  returns 0x00 (0000ms, 9486ms total)
T3174 1427:469 JLINK_WriteReg(R15 (PC), 0x20000344)  returns 0x00 (0000ms, 9486ms total)
T3174 1427:469 JLINK_WriteReg(XPSR, 0x01000000)  returns 0x00 (0000ms, 9486ms total)
T3174 1427:469 JLINK_WriteReg(MSP, 0x20004000)  returns 0x00 (0000ms, 9486ms total)
T3174 1427:469 JLINK_WriteReg(PSP, 0x20004000)  returns 0x00 (0000ms, 9486ms total)
T3174 1427:469 JLINK_WriteReg(CFBP, 0x00000000)  returns 0x00 (0000ms, 9486ms total)
T3174 1427:469 JLINK_SetBPEx(Addr = 0x20000000, Type = 0xFFFFFFF2)  returns 0x00000008 (0000ms, 9486ms total)
T3174 1427:469 JLINK_Go() -- CPU_ReadMem(4 bytes @ 0xE0001000) (0002ms, 9488ms total)
T3174 1427:471 JLINK_IsHalted()  returns FALSE (0001ms, 9489ms total)
T3174 1427:474 JLINK_IsHalted() -- CPU_ReadMem(2 bytes @ 0x20000000)  returns TRUE (0004ms, 9492ms total)
T3174 1427:478 JLINK_ReadReg(R15 (PC))  returns 0x20000000 (0000ms, 9488ms total)
T3174 1427:478 JLINK_ClrBPEx(BPHandle = 0x00000008)  returns 0x00 (0000ms, 9488ms total)
T3174 1427:478 JLINK_ReadReg(R0)  returns 0x00000000 (0000ms, 9488ms total)
T3174 1427:479 JLINK_WriteReg(R0, 0x00000001)  returns 0x00 (0000ms, 9488ms total)
T3174 1427:479 JLINK_WriteReg(R1, 0x00001000)  returns 0x00 (0000ms, 9488ms total)
T3174 1427:479 JLINK_WriteReg(R2, 0x000000FF)  returns 0x00 (0000ms, 9488ms total)
T3174 1427:479 JLINK_WriteReg(R3, 0x00000000)  returns 0x00 (0000ms, 9488ms total)
T3174 1427:479 JLINK_WriteReg(R4, 0x00000000)  returns 0x00 (0000ms, 9488ms total)
T3174 1427:479 JLINK_WriteReg(R5, 0x00000000)  returns 0x00 (0000ms, 9488ms total)
T3174 1427:479 JLINK_WriteReg(R6, 0x00000000)  returns 0x00 (0000ms, 9488ms total)
T3174 1427:479 JLINK_WriteReg(R7, 0x00000000)  returns 0x00 (0000ms, 9488ms total)
T3174 1427:479 JLINK_WriteReg(R8, 0x00000000)  returns 0x00 (0000ms, 9488ms total)
T3174 1427:479 JLINK_WriteReg(R9, 0x200006E0)  returns 0x00 (0000ms, 9488ms total)
T3174 1427:479 JLINK_WriteReg(R10, 0x00000000)  returns 0x00 (0000ms, 9488ms total)
T3174 1427:479 JLINK_WriteReg(R11, 0x00000000)  returns 0x00 (0000ms, 9488ms total)
T3174 1427:479 JLINK_WriteReg(R12, 0x00000000)  returns 0x00 (0000ms, 9488ms total)
T3174 1427:479 JLINK_WriteReg(R13 (SP), 0x20004000)  returns 0x00 (0000ms, 9488ms total)
T3174 1427:479 JLINK_WriteReg(R14, 0x20000001)  returns 0x00 (0000ms, 9488ms total)
T3174 1427:479 JLINK_WriteReg(R15 (PC), 0x20000090)  returns 0x00 (0000ms, 9488ms total)
T3174 1427:479 JLINK_WriteReg(XPSR, 0x01000000)  returns 0x00 (0000ms, 9488ms total)
T3174 1427:479 JLINK_WriteReg(MSP, 0x20004000)  returns 0x00 (0000ms, 9488ms total)
T3174 1427:479 JLINK_WriteReg(PSP, 0x20004000)  returns 0x00 (0000ms, 9488ms total)
T3174 1427:479 JLINK_WriteReg(CFBP, 0x00000000)  returns 0x00 (0000ms, 9488ms total)
T3174 1427:479 JLINK_SetBPEx(Addr = 0x20000000, Type = 0xFFFFFFF2)  returns 0x00000009 (0000ms, 9488ms total)
T3174 1427:479 JLINK_Go() -- CPU_ReadMem(4 bytes @ 0xE0001000) (0002ms, 9490ms total)
T3174 1427:481 JLINK_IsHalted() -- CPU_ReadMem(2 bytes @ 0x20000000)  returns TRUE (0005ms, 9495ms total)
T3174 1427:486 JLINK_ReadReg(R15 (PC))  returns 0x20000000 (0000ms, 9490ms total)
T3174 1427:486 JLINK_ClrBPEx(BPHandle = 0x00000009)  returns 0x00 (0000ms, 9490ms total)
T3174 1427:486 JLINK_ReadReg(R0)  returns 0x00000000 (0000ms, 9490ms total)
T3174 1427:544 JLINK_WriteMem(0x20000000, 0x06E4 Bytes, ...) - Data: 00 BE 0A E0 0D 78 2D 06 68 40 08 24 40 00 00 D3 ... -- CPU_WriteMem(1764 bytes @ 0x20000000)  returns 0x6E4 (0018ms, 9508ms total)
T3174 1427:562 JLINK_WriteReg(R0, 0x00000000)  returns 0x00 (0000ms, 9508ms total)
T3174 1427:562 JLINK_WriteReg(R1, 0x00B71B00)  returns 0x00 (0000ms, 9508ms total)
T3174 1427:562 JLINK_WriteReg(R2, 0x00000002)  returns 0x00 (0000ms, 9508ms total)
T3174 1427:562 JLINK_WriteReg(R3, 0x00000000)  returns 0x00 (0000ms, 9508ms total)
T3174 1427:562 JLINK_WriteReg(R4, 0x00000000)  returns 0x00 (0000ms, 9508ms total)
T3174 1427:562 JLINK_WriteReg(R5, 0x00000000)  returns 0x00 (0000ms, 9508ms total)
T3174 1427:562 JLINK_WriteReg(R6, 0x00000000)  returns 0x00 (0000ms, 9508ms total)
T3174 1427:562 JLINK_WriteReg(R7, 0x00000000)  returns 0x00 (0000ms, 9508ms total)
T3174 1427:562 JLINK_WriteReg(R8, 0x00000000)  returns 0x00 (0000ms, 9508ms total)
T3174 1427:562 JLINK_WriteReg(R9, 0x200006E0)  returns 0x00 (0000ms, 9508ms total)
T3174 1427:562 JLINK_WriteReg(R10, 0x00000000)  returns 0x00 (0000ms, 9508ms total)
T3174 1427:562 JLINK_WriteReg(R11, 0x00000000)  returns 0x00 (0000ms, 9508ms total)
T3174 1427:562 JLINK_WriteReg(R12, 0x00000000)  returns 0x00 (0000ms, 9508ms total)
T3174 1427:562 JLINK_WriteReg(R13 (SP), 0x20004000)  returns 0x00 (0000ms, 9508ms total)
T3174 1427:562 JLINK_WriteReg(R14, 0x20000001)  returns 0x00 (0000ms, 9508ms total)
T3174 1427:562 JLINK_WriteReg(R15 (PC), 0x20000020)  returns 0x00 (0000ms, 9508ms total)
T3174 1427:562 JLINK_WriteReg(XPSR, 0x01000000)  returns 0x00 (0000ms, 9508ms total)
T3174 1427:562 JLINK_WriteReg(MSP, 0x20004000)  returns 0x00 (0000ms, 9508ms total)
T3174 1427:562 JLINK_WriteReg(PSP, 0x20004000)  returns 0x00 (0000ms, 9508ms total)
T3174 1427:562 JLINK_WriteReg(CFBP, 0x00000000)  returns 0x00 (0000ms, 9508ms total)
T3174 1427:562 JLINK_SetBPEx(Addr = 0x20000000, Type = 0xFFFFFFF2) -- CPU_ReadMem(2 bytes @ 0x20000000)  returns 0x0000000A (0000ms, 9508ms total)
T3174 1427:562 JLINK_Go() -- CPU_WriteMem(2 bytes @ 0x20000000) -- CPU_ReadMem(4 bytes @ 0xE0001000) (0003ms, 9511ms total)
T3174 1427:565 JLINK_IsHalted() -- CPU_ReadMem(2 bytes @ 0x20000000)  returns TRUE (0005ms, 9516ms total)
T3174 1427:570 JLINK_ReadReg(R15 (PC))  returns 0x20000000 (0000ms, 9511ms total)
T3174 1427:570 JLINK_ClrBPEx(BPHandle = 0x0000000A)  returns 0x00 (0000ms, 9511ms total)
T3174 1427:570 JLINK_ReadReg(R0)  returns 0x00000000 (0000ms, 9511ms total)
T3174 1427:571 JLINK_WriteMem(0x200006F4, 0x010C Bytes, ...) - Data: 30 4A 00 20 F9 62 02 00 01 63 02 00 03 63 02 00 ... -- CPU_WriteMem(268 bytes @ 0x200006F4)  returns 0x10C (0003ms, 9514ms total)
T3174 1427:574 JLINK_WriteMem(0x20000800, 0x0400 Bytes, ...) - Data: 00 00 00 00 00 00 00 00 00 00 00 00 00 00 00 00 ... -- CPU_WriteMem(1024 bytes @ 0x20000800)  returns 0x400 (0010ms, 9524ms total)
T3174 1427:584 JLINK_WriteMem(0x20000C00, 0x0400 Bytes, ...) - Data: 15 1E A2 F1 01 02 F1 DC 30 BD 20 2A 04 DB 20 3A ... -- CPU_WriteMem(1024 bytes @ 0x20000C00)  returns 0x400 (0010ms, 9534ms total)
T3174 1427:595 JLINK_WriteMem(0x20001000, 0x0400 Bytes, ...) - Data: 20 46 03 F0 47 FB 46 F0 00 46 06 AA 01 21 00 20 ... -- CPU_WriteMem(1024 bytes @ 0x20001000)  returns 0x400 (0010ms, 9544ms total)
T3174 1427:605 JLINK_WriteMem(0x20001400, 0x02F4 Bytes, ...) - Data: 08 03 60 79 20 B9 01 20 60 71 21 68 00 20 88 47 ... -- CPU_WriteMem(756 bytes @ 0x20001400)  returns 0x2F4 (0008ms, 9552ms total)
T3174 1427:613 JLINK_WriteReg(R0, 0x00026000)  returns 0x00 (0000ms, 9552ms total)
T3174 1427:613 JLINK_WriteReg(R1, 0x00001000)  returns 0x00 (0000ms, 9552ms total)
T3174 1427:613 JLINK_WriteReg(R2, 0x200006F4)  returns 0x00 (0000ms, 9552ms total)
T3174 1427:613 JLINK_WriteReg(R3, 0x00000000)  returns 0x00 (0000ms, 9552ms total)
T3174 1427:613 JLINK_WriteReg(R4, 0x00000000)  returns 0x00 (0000ms, 9552ms total)
T3174 1427:613 JLINK_WriteReg(R5, 0x00000000)  returns 0x00 (0000ms, 9552ms total)
T3174 1427:613 JLINK_WriteReg(R6, 0x00000000)  returns 0x00 (0000ms, 9552ms total)
T3174 1427:613 JLINK_WriteReg(R7, 0x00000000)  returns 0x00 (0000ms, 9552ms total)
T3174 1427:613 JLINK_WriteReg(R8, 0x00000000)  returns 0x00 (0000ms, 9552ms total)
T3174 1427:613 JLINK_WriteReg(R9, 0x200006E0)  returns 0x00 (0000ms, 9552ms total)
T3174 1427:613 JLINK_WriteReg(R10, 0x00000000)  returns 0x00 (0000ms, 9552ms total)
T3174 1427:613 JLINK_WriteReg(R11, 0x00000000)  returns 0x00 (0000ms, 9552ms total)
T3174 1427:613 JLINK_WriteReg(R12, 0x00000000)  returns 0x00 (0000ms, 9552ms total)
T3174 1427:613 JLINK_WriteReg(R13 (SP), 0x20004000)  returns 0x00 (0000ms, 9552ms total)
T3174 1427:613 JLINK_WriteReg(R14, 0x20000001)  returns 0x00 (0000ms, 9552ms total)
T3174 1427:613 JLINK_WriteReg(R15 (PC), 0x2000020C)  returns 0x00 (0000ms, 9552ms total)
T3174 1427:613 JLINK_WriteReg(XPSR, 0x01000000)  returns 0x00 (0000ms, 9552ms total)
T3174 1427:613 JLINK_WriteReg(MSP, 0x20004000)  returns 0x00 (0000ms, 9552ms total)
T3174 1427:613 JLINK_WriteReg(PSP, 0x20004000)  returns 0x00 (0000ms, 9552ms total)
T3174 1427:613 JLINK_WriteReg(CFBP, 0x00000000)  returns 0x00 (0000ms, 9552ms total)
T3174 1427:613 JLINK_SetBPEx(Addr = 0x20000000, Type = 0xFFFFFFF2)  returns 0x0000000B (0000ms, 9552ms total)
T3174 1427:613 JLINK_Go() -- CPU_ReadMem(4 bytes @ 0xE0001000) (0003ms, 9555ms total)
T3174 1427:616 JLINK_IsHalted()  returns FALSE (0000ms, 9555ms total)
T3174 1427:624 JLINK_IsHalted()  returns FALSE (0000ms, 9555ms total)
T3174 1427:626 JLINK_IsHalted()  returns FALSE (0000ms, 9555ms total)
T3174 1427:630 JLINK_IsHalted()  returns FALSE (0000ms, 9555ms total)
T3174 1427:632 JLINK_IsHalted()  returns FALSE (0000ms, 9555ms total)
T3174 1427:634 JLINK_IsHalted()  returns FALSE (0000ms, 9555ms total)
T3174 1427:636 JLINK_IsHalted()  returns FALSE (0000ms, 9555ms total)
T3174 1427:638 JLINK_IsHalted()  returns FALSE (0000ms, 9555ms total)
T3174 1427:640 JLINK_IsHalted()  returns FALSE (0000ms, 9555ms total)
T3174 1427:642 JLINK_IsHalted()  returns FALSE (0000ms, 9555ms total)
T3174 1427:644 JLINK_IsHalted()  returns FALSE (0000ms, 9555ms total)
T3174 1427:646 JLINK_IsHalted()  returns FALSE (0000ms, 9555ms total)
T3174 1427:648 JLINK_IsHalted()  returns FALSE (0000ms, 9555ms total)
T3174 1427:650 JLINK_IsHalted()  returns FALSE (0000ms, 9555ms total)
T3174 1427:652 JLINK_IsHalted()  returns FALSE (0000ms, 9555ms total)
T3174 1427:654 JLINK_IsHalted()  returns FALSE (0000ms, 9555ms total)
T3174 1427:656 JLINK_IsHalted()  returns FALSE (0000ms, 9555ms total)
T3174 1427:658 JLINK_IsHalted()  returns FALSE (0000ms, 9555ms total)
T3174 1427:660 JLINK_IsHalted()  returns FALSE (0000ms, 9555ms total)
T3174 1427:662 JLINK_IsHalted()  returns FALSE (0000ms, 9555ms total)
T3174 1427:664 JLINK_IsHalted()  returns FALSE (0000ms, 9555ms total)
T3174 1427:666 JLINK_IsHalted()  returns FALSE (0000ms, 9555ms total)
T3174 1427:668 JLINK_IsHalted()  returns FALSE (0000ms, 9555ms total)
T3174 1427:670 JLINK_IsHalted()  returns FALSE (0000ms, 9555ms total)
T3174 1427:672 JLINK_IsHalted()  returns FALSE (0000ms, 9555ms total)
T3174 1427:674 JLINK_IsHalted()  returns FALSE (0000ms, 9555ms total)
T3174 1427:676 JLINK_IsHalted()  returns FALSE (0000ms, 9555ms total)
T3174 1427:678 JLINK_IsHalted()  returns FALSE (0000ms, 9555ms total)
T3174 1427:680 JLINK_IsHalted()  returns FALSE (0000ms, 9555ms total)
T3174 1427:682 JLINK_IsHalted()  returns FALSE (0000ms, 9555ms total)
T3174 1427:684 JLINK_IsHalted()  returns FALSE (0000ms, 9555ms total)
T3174 1427:686 JLINK_IsHalted() -- CPU_ReadMem(2 bytes @ 0x20000000)  returns TRUE (0004ms, 9559ms total)
T3174 1427:690 JLINK_ReadReg(R15 (PC))  returns 0x20000000 (0001ms, 9556ms total)
T3174 1427:691 JLINK_ClrBPEx(BPHandle = 0x0000000B)  returns 0x00 (0000ms, 9556ms total)
T3174 1427:691 JLINK_ReadReg(R0)  returns 0x00000000 (0000ms, 9556ms total)
T3174 1427:691 JLINK_WriteMem(0x200006F4, 0x010C Bytes, ...) - Data: 04 D1 06 78 C6 F3 03 16 05 2E 02 D0 06 29 57 D0 ... -- CPU_WriteMem(268 bytes @ 0x200006F4)  returns 0x10C (0004ms, 9560ms total)
T3174 1427:695 JLINK_WriteMem(0x20000800, 0x0400 Bytes, ...) - Data: 6F F0 01 01 01 60 D4 F8 30 01 06 28 08 D1 D4 F8 ... -- CPU_WriteMem(1024 bytes @ 0x20000800)  returns 0x400 (0010ms, 9570ms total)
T3174 1427:705 JLINK_WriteMem(0x20000C00, 0x0400 Bytes, ...) - Data: 0D E0 44 F4 00 14 0A E0 44 F4 80 14 01 E0 44 F4 ... -- CPU_WriteMem(1024 bytes @ 0x20000C00)  returns 0x400 (0010ms, 9580ms total)
T3174 1427:715 JLINK_WriteMem(0x20001000, 0x0400 Bytes, ...) - Data: 0F 01 0E 9A 03 91 00 21 00 92 07 F1 01 0A 04 91 ... -- CPU_WriteMem(1024 bytes @ 0x20001000)  returns 0x400 (0010ms, 9590ms total)
T3174 1427:725 JLINK_WriteMem(0x20001400, 0x02F4 Bytes, ...) - Data: 04 00 FA 05 0E B5 00 21 00 91 CD E9 01 10 6A 46 ... -- CPU_WriteMem(756 bytes @ 0x20001400)  returns 0x2F4 (0008ms, 9598ms total)
T3174 1427:733 JLINK_WriteReg(R0, 0x00027000)  returns 0x00 (0000ms, 9598ms total)
T3174 1427:733 JLINK_WriteReg(R1, 0x00001000)  returns 0x00 (0000ms, 9598ms total)
T3174 1427:733 JLINK_WriteReg(R2, 0x200006F4)  returns 0x00 (0000ms, 9598ms total)
T3174 1427:733 JLINK_WriteReg(R3, 0x00000000)  returns 0x00 (0000ms, 9598ms total)
T3174 1427:733 JLINK_WriteReg(R4, 0x00000000)  returns 0x00 (0000ms, 9598ms total)
T3174 1427:733 JLINK_WriteReg(R5, 0x00000000)  returns 0x00 (0000ms, 9598ms total)
T3174 1427:733 JLINK_WriteReg(R6, 0x00000000)  returns 0x00 (0000ms, 9598ms total)
T3174 1427:733 JLINK_WriteReg(R7, 0x00000000)  returns 0x00 (0000ms, 9598ms total)
T3174 1427:733 JLINK_WriteReg(R8, 0x00000000)  returns 0x00 (0000ms, 9598ms total)
T3174 1427:733 JLINK_WriteReg(R9, 0x200006E0)  returns 0x00 (0000ms, 9598ms total)
T3174 1427:733 JLINK_WriteReg(R10, 0x00000000)  returns 0x00 (0000ms, 9598ms total)
T3174 1427:733 JLINK_WriteReg(R11, 0x00000000)  returns 0x00 (0000ms, 9598ms total)
T3174 1427:733 JLINK_WriteReg(R12, 0x00000000)  returns 0x00 (0000ms, 9598ms total)
T3174 1427:733 JLINK_WriteReg(R13 (SP), 0x20004000)  returns 0x00 (0000ms, 9598ms total)
T3174 1427:733 JLINK_WriteReg(R14, 0x20000001)  returns 0x00 (0000ms, 9598ms total)
T3174 1427:733 JLINK_WriteReg(R15 (PC), 0x2000020C)  returns 0x00 (0000ms, 9598ms total)
T3174 1427:733 JLINK_WriteReg(XPSR, 0x01000000)  returns 0x00 (0000ms, 9598ms total)
T3174 1427:733 JLINK_WriteReg(MSP, 0x20004000)  returns 0x00 (0000ms, 9598ms total)
T3174 1427:733 JLINK_WriteReg(PSP, 0x20004000)  returns 0x00 (0000ms, 9598ms total)
T3174 1427:733 JLINK_WriteReg(CFBP, 0x00000000)  returns 0x00 (0001ms, 9599ms total)
T3174 1427:734 JLINK_SetBPEx(Addr = 0x20000000, Type = 0xFFFFFFF2)  returns 0x0000000C (0000ms, 9599ms total)
T3174 1427:734 JLINK_Go() -- CPU_ReadMem(4 bytes @ 0xE0001000) (0002ms, 9601ms total)
T3174 1427:736 JLINK_IsHalted()  returns FALSE (0001ms, 9602ms total)
T3174 1427:749 JLINK_IsHalted()  returns FALSE (0000ms, 9601ms total)
T3174 1427:751 JLINK_IsHalted()  returns FALSE (0000ms, 9601ms total)
T3174 1427:753 JLINK_IsHalted()  returns FALSE (0000ms, 9601ms total)
T3174 1427:755 JLINK_IsHalted()  returns FALSE (0000ms, 9601ms total)
T3174 1427:757 JLINK_IsHalted()  returns FALSE (0000ms, 9601ms total)
T3174 1427:759 JLINK_IsHalted()  returns FALSE (0000ms, 9601ms total)
T3174 1427:761 JLINK_IsHalted()  returns FALSE (0000ms, 9601ms total)
T3174 1427:763 JLINK_IsHalted()  returns FALSE (0000ms, 9601ms total)
T3174 1427:765 JLINK_IsHalted()  returns FALSE (0000ms, 9601ms total)
T3174 1427:767 JLINK_IsHalted()  returns FALSE (0000ms, 9601ms total)
T3174 1427:769 JLINK_IsHalted()  returns FALSE (0000ms, 9601ms total)
T3174 1427:771 JLINK_IsHalted()  returns FALSE (0000ms, 9601ms total)
T3174 1427:773 JLINK_IsHalted()  returns FALSE (0000ms, 9601ms total)
T3174 1427:775 JLINK_IsHalted()  returns FALSE (0000ms, 9601ms total)
T3174 1427:777 JLINK_IsHalted()  returns FALSE (0000ms, 9601ms total)
T3174 1427:779 JLINK_IsHalted()  returns FALSE (0000ms, 9601ms total)
T3174 1427:781 JLINK_IsHalted()  returns FALSE (0000ms, 9601ms total)
T3174 1427:782 JLINK_IsHalted()  returns FALSE (0000ms, 9601ms total)
T3174 1427:784 JLINK_IsHalted()  returns FALSE (0000ms, 9601ms total)
T3174 1427:786 JLINK_IsHalted()  returns FALSE (0000ms, 9601ms total)
T3174 1427:789 JLINK_IsHalted()  returns FALSE (0000ms, 9601ms total)
T3174 1427:790 JLINK_IsHalted()  returns FALSE (0000ms, 9601ms total)
T3174 1427:793 JLINK_IsHalted()  returns FALSE (0000ms, 9601ms total)
T3174 1427:795 JLINK_IsHalted()  returns FALSE (0000ms, 9601ms total)
T3174 1427:796 JLINK_IsHalted()  returns FALSE (0000ms, 9601ms total)
T3174 1427:798 JLINK_IsHalted()  returns FALSE (0000ms, 9601ms total)
T3174 1427:800 JLINK_IsHalted()  returns FALSE (0000ms, 9601ms total)
T3174 1427:802 JLINK_IsHalted()  returns FALSE (0000ms, 9601ms total)
T3174 1427:804 JLINK_IsHalted()  returns FALSE (0000ms, 9601ms total)
T3174 1427:806 JLINK_IsHalted() -- CPU_ReadMem(2 bytes @ 0x20000000)  returns TRUE (0005ms, 9606ms total)
T3174 1427:811 JLINK_ReadReg(R15 (PC))  returns 0x20000000 (0000ms, 9601ms total)
T3174 1427:811 JLINK_ClrBPEx(BPHandle = 0x0000000C)  returns 0x00 (0000ms, 9601ms total)
T3174 1427:811 JLINK_ReadReg(R0)  returns 0x00000000 (0000ms, 9601ms total)
T3174 1427:812 JLINK_WriteMem(0x200006F4, 0x010C Bytes, ...) - Data: 84 21 00 22 02 70 E8 E7 04 2A 00 20 FC 06 FF BD ... -- CPU_WriteMem(268 bytes @ 0x200006F4)  returns 0x10C (0003ms, 9604ms total)
T3174 1427:815 JLINK_WriteMem(0x20000800, 0x0400 Bytes, ...) - Data: C2 F8 6C 05 D4 E9 00 12 30 68 C0 F8 0C 15 C0 F8 ... -- CPU_WriteMem(1024 bytes @ 0x20000800)  returns 0x400 (0010ms, 9614ms total)
T3174 1427:825 JLINK_WriteMem(0x20000C00, 0x0400 Bytes, ...) - Data: F0 87 FF E7 68 68 FF F7 B3 FC 00 28 F7 D0 BD E8 ... -- CPU_WriteMem(1024 bytes @ 0x20000C00)  returns 0x400 (0010ms, 9624ms total)
T3174 1427:835 JLINK_WriteMem(0x20001000, 0x0400 Bytes, ...) - Data: 06 D0 02 29 06 D0 07 23 18 46 70 BD 0E 30 C2 B2 ... -- CPU_WriteMem(1024 bytes @ 0x20001000)  returns 0x400 (0011ms, 9635ms total)
T3174 1427:846 JLINK_WriteMem(0x20001400, 0x02F4 Bytes, ...) - Data: 38 00 07 97 20 F0 0F 00 40 1C 20 F0 F0 00 10 30 ... -- CPU_WriteMem(756 bytes @ 0x20001400)  returns 0x2F4 (0007ms, 9642ms total)
T3174 1427:853 JLINK_WriteReg(R0, 0x00028000)  returns 0x00 (0000ms, 9642ms total)
T3174 1427:853 JLINK_WriteReg(R1, 0x00001000)  returns 0x00 (0000ms, 9642ms total)
T3174 1427:853 JLINK_WriteReg(R2, 0x200006F4)  returns 0x00 (0000ms, 9642ms total)
T3174 1427:853 JLINK_WriteReg(R3, 0x00000000)  returns 0x00 (0000ms, 9642ms total)
T3174 1427:853 JLINK_WriteReg(R4, 0x00000000)  returns 0x00 (0000ms, 9642ms total)
T3174 1427:853 JLINK_WriteReg(R5, 0x00000000)  returns 0x00 (0000ms, 9642ms total)
T3174 1427:854 JLINK_WriteReg(R6, 0x00000000)  returns 0x00 (0000ms, 9643ms total)
T3174 1427:854 JLINK_WriteReg(R7, 0x00000000)  returns 0x00 (0000ms, 9643ms total)
T3174 1427:854 JLINK_WriteReg(R8, 0x00000000)  returns 0x00 (0000ms, 9643ms total)
T3174 1427:854 JLINK_WriteReg(R9, 0x200006E0)  returns 0x00 (0000ms, 9643ms total)
T3174 1427:854 JLINK_WriteReg(R10, 0x00000000)  returns 0x00 (0000ms, 9643ms total)
T3174 1427:854 JLINK_WriteReg(R11, 0x00000000)  returns 0x00 (0000ms, 9643ms total)
T3174 1427:854 JLINK_WriteReg(R12, 0x00000000)  returns 0x00 (0000ms, 9643ms total)
T3174 1427:854 JLINK_WriteReg(R13 (SP), 0x20004000)  returns 0x00 (0000ms, 9643ms total)
T3174 1427:854 JLINK_WriteReg(R14, 0x20000001)  returns 0x00 (0000ms, 9643ms total)
T3174 1427:854 JLINK_WriteReg(R15 (PC), 0x2000020C)  returns 0x00 (0000ms, 9643ms total)
T3174 1427:854 JLINK_WriteReg(XPSR, 0x01000000)  returns 0x00 (0000ms, 9643ms total)
T3174 1427:854 JLINK_WriteReg(MSP, 0x20004000)  returns 0x00 (0000ms, 9643ms total)
T3174 1427:854 JLINK_WriteReg(PSP, 0x20004000)  returns 0x00 (0000ms, 9643ms total)
T3174 1427:854 JLINK_WriteReg(CFBP, 0x00000000)  returns 0x00 (0000ms, 9643ms total)
T3174 1427:854 JLINK_SetBPEx(Addr = 0x20000000, Type = 0xFFFFFFF2)  returns 0x0000000D (0000ms, 9643ms total)
T3174 1427:854 JLINK_Go() -- CPU_ReadMem(4 bytes @ 0xE0001000) (0002ms, 9645ms total)
T3174 1427:856 JLINK_IsHalted()  returns FALSE (0001ms, 9646ms total)
T3174 1427:861 JLINK_IsHalted()  returns FALSE (0000ms, 9645ms total)
T3174 1427:863 JLINK_IsHalted()  returns FALSE (0000ms, 9645ms total)
T3174 1427:865 JLINK_IsHalted()  returns FALSE (0000ms, 9645ms total)
T3174 1427:867 JLINK_IsHalted()  returns FALSE (0000ms, 9645ms total)
T3174 1427:869 JLINK_IsHalted()  returns FALSE (0000ms, 9645ms total)
T3174 1427:871 JLINK_IsHalted()  returns FALSE (0000ms, 9645ms total)
T3174 1427:873 JLINK_IsHalted()  returns FALSE (0000ms, 9645ms total)
T3174 1427:875 JLINK_IsHalted()  returns FALSE (0000ms, 9645ms total)
T3174 1427:877 JLINK_IsHalted()  returns FALSE (0000ms, 9645ms total)
T3174 1427:879 JLINK_IsHalted()  returns FALSE (0000ms, 9645ms total)
T3174 1427:881 JLINK_IsHalted()  returns FALSE (0000ms, 9645ms total)
T3174 1427:883 JLINK_IsHalted()  returns FALSE (0000ms, 9645ms total)
T3174 1427:885 JLINK_IsHalted()  returns FALSE (0000ms, 9645ms total)
T3174 1427:887 JLINK_IsHalted()  returns FALSE (0000ms, 9645ms total)
T3174 1427:889 JLINK_IsHalted()  returns FALSE (0000ms, 9645ms total)
T3174 1427:891 JLINK_IsHalted()  returns FALSE (0000ms, 9645ms total)
T3174 1427:893 JLINK_IsHalted()  returns FALSE (0000ms, 9645ms total)
T3174 1427:895 JLINK_IsHalted()  returns FALSE (0000ms, 9645ms total)
T3174 1427:897 JLINK_IsHalted()  returns FALSE (0000ms, 9645ms total)
T3174 1427:899 JLINK_IsHalted()  returns FALSE (0000ms, 9645ms total)
T3174 1427:901 JLINK_IsHalted()  returns FALSE (0000ms, 9645ms total)
T3174 1427:903 JLINK_IsHalted()  returns FALSE (0000ms, 9645ms total)
T3174 1427:905 JLINK_IsHalted()  returns FALSE (0000ms, 9645ms total)
T3174 1427:907 JLINK_IsHalted()  returns FALSE (0000ms, 9645ms total)
T3174 1427:909 JLINK_IsHalted()  returns FALSE (0000ms, 9645ms total)
T3174 1427:911 JLINK_IsHalted()  returns FALSE (0000ms, 9645ms total)
T3174 1427:913 JLINK_IsHalted()  returns FALSE (0000ms, 9645ms total)
T3174 1427:915 JLINK_IsHalted()  returns FALSE (0000ms, 9645ms total)
T3174 1427:917 JLINK_IsHalted()  returns FALSE (0000ms, 9645ms total)
T3174 1427:919 JLINK_IsHalted()  returns FALSE (0000ms, 9645ms total)
T3174 1427:921 JLINK_IsHalted()  returns FALSE (0000ms, 9645ms total)
T3174 1427:923 JLINK_IsHalted()  returns FALSE (0000ms, 9645ms total)
T3174 1427:925 JLINK_IsHalted()  returns FALSE (0000ms, 9645ms total)
T3174 1427:927 JLINK_IsHalted() -- CPU_ReadMem(2 bytes @ 0x20000000)  returns TRUE (0005ms, 9650ms total)
T3174 1427:932 JLINK_ReadReg(R15 (PC))  returns 0x20000000 (0000ms, 9645ms total)
T3174 1427:932 JLINK_ClrBPEx(BPHandle = 0x0000000D)  returns 0x00 (0000ms, 9645ms total)
T3174 1427:932 JLINK_ReadReg(R0)  returns 0x00000000 (0000ms, 9645ms total)
T3174 1427:932 JLINK_WriteMem(0x200006F4, 0x010C Bytes, ...) - Data: 1F B5 00 22 00 92 AD F8 00 10 01 92 AD F8 02 10 ... -- CPU_WriteMem(268 bytes @ 0x200006F4)  returns 0x10C (0004ms, 9649ms total)
T3174 1427:936 JLINK_WriteMem(0x20000800, 0x0400 Bytes, ...) - Data: C2 68 83 88 1A 40 03 68 99 54 C1 68 49 1C C1 60 ... -- CPU_WriteMem(1024 bytes @ 0x20000800)  returns 0x400 (0009ms, 9658ms total)
T3174 1427:945 JLINK_WriteMem(0x20000C00, 0x0400 Bytes, ...) - Data: 08 B1 FE F7 FF FB 53 49 18 22 28 31 68 46 FC F7 ... -- CPU_WriteMem(1024 bytes @ 0x20000C00)  returns 0x400 (0011ms, 9669ms total)
